


                               __________________________________________
                              |                                          |
                              |  NUMERICAL ELECTROMAGNETICS CODE (nec2c) |
                              |   Translated to 'C' in Double Precision  |
                              |__________________________________________|



                               ---------------- COMMENTS ----------------
                               TobiaC: Lofar model with Ground
                                --- End Comments ---



                               -------- STRUCTURE SPECIFICATION --------
                                     COORDINATES MUST BE INPUT IN
                                     METERS OR BE SCALED TO METERS
                                     BEFORE STRUCTURE INPUT IS ENDED

  WIRE                                                                                 SEG FIRST  LAST  TAG
   No:        X1         Y1         Z1         X2         Y2         Z2       RADIUS   No:   SEG   SEG  No:
     1     -0.0500     0.0000     1.1000    -0.9339     0.0000     0.1000     0.0010    25     1    25    1
     2      0.0500     0.0000     1.1000     0.9339     0.0000     0.1000     0.0010    25    26    50    2
     3     -0.0500     0.0000     1.1000     0.0500     0.0000     1.1000     0.0015     5    51    55    3

     TOTAL SEGMENTS USED: 55   SEGMENTS IN A SYMMETRIC CELL: 55   SYMMETRY FLAG: 0


                               ---------- SEGMENTATION DATA ----------
                                        COORDINATES IN METERS
                            I+ AND I- INDICATE THE SEGMENTS BEFORE AND AFTER I

   SEG    COORDINATES OF SEGM CENTER     SEGM    ORIENTATION ANGLES    WIRE    CONNECTION DATA   TAG
   No:       X         Y         Z      LENGTH     ALPHA      BETA    RADIUS    I-     I    I+   No:
     1   -0.0677    0.0000    1.0800    0.0534  -48.5272  180.0000    0.0010   -51     1     2     1
     2   -0.1030    0.0000    1.0400    0.0534  -48.5272  180.0000    0.0010     1     2     3     1
     3   -0.1384    0.0000    1.0000    0.0534  -48.5272  180.0000    0.0010     2     3     4     1
     4   -0.1737    0.0000    0.9600    0.0534  -48.5272  180.0000    0.0010     3     4     5     1
     5   -0.2091    0.0000    0.9200    0.0534  -48.5272  180.0000    0.0010     4     5     6     1
     6   -0.2445    0.0000    0.8800    0.0534  -48.5272  180.0000    0.0010     5     6     7     1
     7   -0.2798    0.0000    0.8400    0.0534  -48.5272  180.0000    0.0010     6     7     8     1
     8   -0.3152    0.0000    0.8000    0.0534  -48.5272  180.0000    0.0010     7     8     9     1
     9   -0.3505    0.0000    0.7600    0.0534  -48.5272  180.0000    0.0010     8     9    10     1
    10   -0.3859    0.0000    0.7200    0.0534  -48.5272  180.0000    0.0010     9    10    11     1
    11   -0.4212    0.0000    0.6800    0.0534  -48.5272  180.0000    0.0010    10    11    12     1
    12   -0.4566    0.0000    0.6400    0.0534  -48.5272  180.0000    0.0010    11    12    13     1
    13   -0.4919    0.0000    0.6000    0.0534  -48.5272  180.0000    0.0010    12    13    14     1
    14   -0.5273    0.0000    0.5600    0.0534  -48.5272  180.0000    0.0010    13    14    15     1
    15   -0.5627    0.0000    0.5200    0.0534  -48.5272  180.0000    0.0010    14    15    16     1
    16   -0.5980    0.0000    0.4800    0.0534  -48.5272  180.0000    0.0010    15    16    17     1
    17   -0.6334    0.0000    0.4400    0.0534  -48.5272  180.0000    0.0010    16    17    18     1
    18   -0.6687    0.0000    0.4000    0.0534  -48.5272  180.0000    0.0010    17    18    19     1
    19   -0.7041    0.0000    0.3600    0.0534  -48.5272  180.0000    0.0010    18    19    20     1
    20   -0.7394    0.0000    0.3200    0.0534  -48.5272  180.0000    0.0010    19    20    21     1
    21   -0.7748    0.0000    0.2800    0.0534  -48.5272  180.0000    0.0010    20    21    22     1
    22   -0.8101    0.0000    0.2400    0.0534  -48.5272  180.0000    0.0010    21    22    23     1
    23   -0.8455    0.0000    0.2000    0.0534  -48.5272  180.0000    0.0010    22    23    24     1
    24   -0.8808    0.0000    0.1600    0.0534  -48.5272  180.0000    0.0010    23    24    25     1
    25   -0.9162    0.0000    0.1200    0.0534  -48.5272  180.0000    0.0010    24    25     0     1
    26    0.0677    0.0000    1.0800    0.0534  -48.5272    0.0000    0.0010    55    26    27     2
    27    0.1030    0.0000    1.0400    0.0534  -48.5272    0.0000    0.0010    26    27    28     2
    28    0.1384    0.0000    1.0000    0.0534  -48.5272    0.0000    0.0010    27    28    29     2
    29    0.1737    0.0000    0.9600    0.0534  -48.5272    0.0000    0.0010    28    29    30     2
    30    0.2091    0.0000    0.9200    0.0534  -48.5272    0.0000    0.0010    29    30    31     2
    31    0.2445    0.0000    0.8800    0.0534  -48.5272    0.0000    0.0010    30    31    32     2
    32    0.2798    0.0000    0.8400    0.0534  -48.5272    0.0000    0.0010    31    32    33     2
    33    0.3152    0.0000    0.8000    0.0534  -48.5272    0.0000    0.0010    32    33    34     2
    34    0.3505    0.0000    0.7600    0.0534  -48.5272    0.0000    0.0010    33    34    35     2
    35    0.3859    0.0000    0.7200    0.0534  -48.5272    0.0000    0.0010    34    35    36     2
    36    0.4212    0.0000    0.6800    0.0534  -48.5272    0.0000    0.0010    35    36    37     2
    37    0.4566    0.0000    0.6400    0.0534  -48.5272    0.0000    0.0010    36    37    38     2
    38    0.4919    0.0000    0.6000    0.0534  -48.5272    0.0000    0.0010    37    38    39     2
    39    0.5273    0.0000    0.5600    0.0534  -48.5272    0.0000    0.0010    38    39    40     2
    40    0.5627    0.0000    0.5200    0.0534  -48.5272    0.0000    0.0010    39    40    41     2
    41    0.5980    0.0000    0.4800    0.0534  -48.5272    0.0000    0.0010    40    41    42     2
    42    0.6334    0.0000    0.4400    0.0534  -48.5272    0.0000    0.0010    41    42    43     2
    43    0.6687    0.0000    0.4000    0.0534  -48.5272    0.0000    0.0010    42    43    44     2
    44    0.7041    0.0000    0.3600    0.0534  -48.5272    0.0000    0.0010    43    44    45     2
    45    0.7394    0.0000    0.3200    0.0534  -48.5272    0.0000    0.0010    44    45    46     2
    46    0.7748    0.0000    0.2800    0.0534  -48.5272    0.0000    0.0010    45    46    47     2
    47    0.8101    0.0000    0.2400    0.0534  -48.5272    0.0000    0.0010    46    47    48     2
    48    0.8455    0.0000    0.2000    0.0534  -48.5272    0.0000    0.0010    47    48    49     2
    49    0.8808    0.0000    0.1600    0.0534  -48.5272    0.0000    0.0010    48    49    50     2
    50    0.9162    0.0000    0.1200    0.0534  -48.5272    0.0000    0.0010    49    50     0     2
    51   -0.0400    0.0000    1.1000    0.0200    0.0000    0.0000    0.0015    -1    51    52     3
    52   -0.0200    0.0000    1.1000    0.0200    0.0000    0.0000    0.0015    51    52    53     3
    53    0.0000    0.0000    1.1000    0.0200    0.0000    0.0000    0.0015    52    53    54     3
    54    0.0200    0.0000    1.1000    0.0200    0.0000    0.0000    0.0015    53    54    55     3
    55    0.0400    0.0000    1.1000    0.0200    0.0000    0.0000    0.0015    54    55    26     3



  DATA CARD No:   1 EX   0     3     3     0  1.00000E+00  0.00000E+00  0.00000E+00  0.00000E+00  0.00000E+00  0.00000E+00
  DATA CARD No:   2 FR   0    22     0     0  3.00000E+01  1.00000E+01  2.40000E+02  0.00000E+00  0.00000E+00  0.00000E+00
  DATA CARD No:   3 RP   0    19    37  1010  0.00000E+00  0.00000E+00  1.00000E+01  1.00000E+01  0.00000E+00  0.00000E+00


                               --------- FREQUENCY --------
                                FREQUENCY : 3.0000E+01 MHz
                                WAVELENGTH: 9.9933E+00 Mtr

                        APPROXIMATE INTEGRATION EMPLOYED FOR SEGMENTS 
                        THAT ARE MORE THAN 1.000 WAVELENGTHS APART


                          ------ STRUCTURE IMPEDANCE LOADING ------
                                 THIS STRUCTURE IS NOT LOADED


                            -------- ANTENNA ENVIRONMENT --------
                            FREE SPACE


                             ---------- MATRIX TIMING ----------
                               FILL: 0 msec  FACTOR: 0 msec


                        --------- ANTENNA INPUT PARAMETERS ---------
  TAG   SEG       VOLTAGE (VOLTS)         CURRENT (AMPS)         IMPEDANCE (OHMS)        ADMITTANCE (MHOS)     POWER
  No:   No:     REAL      IMAGINARY     REAL      IMAGINARY     REAL      IMAGINARY    REAL       IMAGINARY   (WATTS)
    3    53  1.0000E+00  0.0000E+00  2.2635E-05  1.7565E-03  7.3352E+00 -5.6922E+02  2.2635E-05  1.7565E-03  1.1318E-05


                           -------- CURRENTS AND LOCATION --------
                                  DISTANCES IN WAVELENGTHS

   SEG  TAG    COORDINATES OF SEGM CENTER     SEGM    ------------- CURRENT (AMPS) -------------
   No:  No:       X         Y         Z      LENGTH     REAL      IMAGINARY    MAGN        PHASE
     1    1   -0.0068    0.0000    0.1081   0.00534 -2.2533E-05 -1.6483E-03  1.6484E-03  -90.783
     2    1   -0.0103    0.0000    0.1041   0.00534 -2.2372E-05 -1.5855E-03  1.5857E-03  -90.808
     3    1   -0.0138    0.0000    0.1001   0.00534 -2.2148E-05 -1.5248E-03  1.5249E-03  -90.832
     4    1   -0.0174    0.0000    0.0961   0.00534 -2.1860E-05 -1.4649E-03  1.4650E-03  -90.855
     5    1   -0.0209    0.0000    0.0921   0.00534 -2.1509E-05 -1.4052E-03  1.4054E-03  -90.877
     6    1   -0.0245    0.0000    0.0881   0.00534 -2.1096E-05 -1.3454E-03  1.3455E-03  -90.898
     7    1   -0.0280    0.0000    0.0841   0.00534 -2.0621E-05 -1.2851E-03  1.2853E-03  -90.919
     8    1   -0.0315    0.0000    0.0801   0.00534 -2.0083E-05 -1.2243E-03  1.2245E-03  -90.940
     9    1   -0.0351    0.0000    0.0761   0.00534 -1.9484E-05 -1.1629E-03  1.1631E-03  -90.960
    10    1   -0.0386    0.0000    0.0720   0.00534 -1.8824E-05 -1.1008E-03  1.1009E-03  -90.980
    11    1   -0.0422    0.0000    0.0680   0.00534 -1.8102E-05 -1.0379E-03  1.0380E-03  -90.999
    12    1   -0.0457    0.0000    0.0640   0.00534 -1.7319E-05 -9.7419E-04  9.7435E-04  -91.018
    13    1   -0.0492    0.0000    0.0600   0.00534 -1.6474E-05 -9.0971E-04  9.0986E-04  -91.037
    14    1   -0.0528    0.0000    0.0560   0.00534 -1.5569E-05 -8.4441E-04  8.4456E-04  -91.056
    15    1   -0.0563    0.0000    0.0520   0.00534 -1.4602E-05 -7.7828E-04  7.7841E-04  -91.075
    16    1   -0.0598    0.0000    0.0480   0.00534 -1.3575E-05 -7.1130E-04  7.1143E-04  -91.093
    17    1   -0.0634    0.0000    0.0440   0.00534 -1.2485E-05 -6.4345E-04  6.4357E-04  -91.112
    18    1   -0.0669    0.0000    0.0400   0.00534 -1.1333E-05 -5.7470E-04  5.7481E-04  -91.130
    19    1   -0.0705    0.0000    0.0360   0.00534 -1.0118E-05 -5.0501E-04  5.0511E-04  -91.148
    20    1   -0.0740    0.0000    0.0320   0.00534 -8.8370E-06 -4.3429E-04  4.3438E-04  -91.166
    21    1   -0.0775    0.0000    0.0280   0.00534 -7.4873E-06 -3.6241E-04  3.6249E-04  -91.184
    22    1   -0.0811    0.0000    0.0240   0.00534 -6.0634E-06 -2.8915E-04  2.8922E-04  -91.201
    23    1   -0.0846    0.0000    0.0200   0.00534 -4.5556E-06 -2.1409E-04  2.1414E-04  -91.219
    24    1   -0.0881    0.0000    0.0160   0.00534 -2.9424E-06 -1.3630E-04  1.3633E-04  -91.237
    25    1   -0.0917    0.0000    0.0120   0.00534 -1.1285E-06 -5.1544E-05  5.1556E-05  -91.254
    26    2    0.0068    0.0000    0.1081   0.00534  2.2533E-05  1.6483E-03  1.6484E-03   89.217
    27    2    0.0103    0.0000    0.1041   0.00534  2.2372E-05  1.5855E-03  1.5857E-03   89.192
    28    2    0.0138    0.0000    0.1001   0.00534  2.2148E-05  1.5248E-03  1.5249E-03   89.168
    29    2    0.0174    0.0000    0.0961   0.00534  2.1860E-05  1.4649E-03  1.4650E-03   89.145
    30    2    0.0209    0.0000    0.0921   0.00534  2.1509E-05  1.4052E-03  1.4054E-03   89.123
    31    2    0.0245    0.0000    0.0881   0.00534  2.1096E-05  1.3454E-03  1.3455E-03   89.102
    32    2    0.0280    0.0000    0.0841   0.00534  2.0621E-05  1.2851E-03  1.2853E-03   89.081
    33    2    0.0315    0.0000    0.0801   0.00534  2.0083E-05  1.2243E-03  1.2245E-03   89.060
    34    2    0.0351    0.0000    0.0761   0.00534  1.9484E-05  1.1629E-03  1.1631E-03   89.040
    35    2    0.0386    0.0000    0.0720   0.00534  1.8824E-05  1.1008E-03  1.1009E-03   89.020
    36    2    0.0422    0.0000    0.0680   0.00534  1.8102E-05  1.0379E-03  1.0380E-03   89.001
    37    2    0.0457    0.0000    0.0640   0.00534  1.7319E-05  9.7419E-04  9.7435E-04   88.982
    38    2    0.0492    0.0000    0.0600   0.00534  1.6474E-05  9.0971E-04  9.0986E-04   88.963
    39    2    0.0528    0.0000    0.0560   0.00534  1.5569E-05  8.4441E-04  8.4456E-04   88.944
    40    2    0.0563    0.0000    0.0520   0.00534  1.4602E-05  7.7828E-04  7.7841E-04   88.925
    41    2    0.0598    0.0000    0.0480   0.00534  1.3575E-05  7.1130E-04  7.1143E-04   88.907
    42    2    0.0634    0.0000    0.0440   0.00534  1.2485E-05  6.4345E-04  6.4357E-04   88.888
    43    2    0.0669    0.0000    0.0400   0.00534  1.1333E-05  5.7470E-04  5.7481E-04   88.870
    44    2    0.0705    0.0000    0.0360   0.00534  1.0118E-05  5.0501E-04  5.0511E-04   88.852
    45    2    0.0740    0.0000    0.0320   0.00534  8.8370E-06  4.3429E-04  4.3438E-04   88.834
    46    2    0.0775    0.0000    0.0280   0.00534  7.4873E-06  3.6241E-04  3.6249E-04   88.816
    47    2    0.0811    0.0000    0.0240   0.00534  6.0634E-06  2.8915E-04  2.8922E-04   88.799
    48    2    0.0846    0.0000    0.0200   0.00534  4.5556E-06  2.1409E-04  2.1414E-04   88.781
    49    2    0.0881    0.0000    0.0160   0.00534  2.9424E-06  1.3630E-04  1.3633E-04   88.763
    50    2    0.0917    0.0000    0.0120   0.00534  1.1285E-06  5.1544E-05  5.1556E-05   88.746
    51    3   -0.0040    0.0000    0.1101   0.00200  2.2606E-05  1.6944E-03  1.6946E-03   89.236
    52    3   -0.0020    0.0000    0.1101   0.00200  2.2628E-05  1.7251E-03  1.7252E-03   89.248
    53    3    0.0000    0.0000    0.1101   0.00200  2.2635E-05  1.7565E-03  1.7566E-03   89.262
    54    3    0.0020    0.0000    0.1101   0.00200  2.2628E-05  1.7251E-03  1.7252E-03   89.248
    55    3    0.0040    0.0000    0.1101   0.00200  2.2606E-05  1.6944E-03  1.6946E-03   89.236


                               ---------- POWER BUDGET ---------
                               INPUT POWER   =  1.1318E-05 Watts
                               RADIATED POWER=  1.1318E-05 Watts
                               STRUCTURE LOSS=  0.0000E+00 Watts
                               NETWORK LOSS  =  0.0000E+00 Watts
                               EFFICIENCY    =  100.00 Percent


                             ---------- RADIATION PATTERNS -----------

 ---- ANGLES -----     --- DIRECTIVE GAINS ---      ---- POLARIZATION ----   ---- E(THETA) ----    ----- E(PHI) ------
  THETA      PHI       VERTC    HORIZ    TOTAL       AXIAL      TILT  SENSE   MAGNITUDE    PHASE    MAGNITUDE     PHASE
 DEGREES   DEGREES        DB       DB       DB       RATIO   DEGREES            VOLTS/M   DEGREES     VOLTS/M   DEGREES
    0.00      0.00      1.90  -999.99     1.90      0.0000      0.00 LINEAR  3.2430E-02     27.48  0.0000E+00     -0.00
   10.00      0.00      1.77  -999.99     1.77      0.0000      0.00 LINEAR  3.1947E-02     27.45  0.0000E+00     -0.00
   20.00      0.00      1.37  -999.99     1.37      0.0000      0.00 LINEAR  3.0517E-02     27.41  0.0000E+00     -0.00
   30.00      0.00      0.69  -999.99     0.69      0.0000      0.00 LINEAR  2.8206E-02     27.47  0.0000E+00     -0.00
   40.00      0.00     -0.32  -999.99    -0.32      0.0000      0.00 LINEAR  2.5117E-02     27.88  0.0000E+00     -0.00
   50.00      0.00     -1.71  -999.99    -1.71      0.0000      0.00 LINEAR  2.1394E-02     29.08  0.0000E+00     -0.00
   60.00      0.00     -3.59  -999.99    -3.59      0.0000      0.00 LINEAR  1.7233E-02     32.06  0.0000E+00     -0.00
   70.00      0.00     -6.08  -999.99    -6.08      0.0000      0.00 LINEAR  1.2935E-02     39.03  0.0000E+00     -0.00
   80.00      0.00     -9.11  -999.99    -9.11      0.0000      0.00 LINEAR  9.1273E-03     55.49  0.0000E+00     -0.00
   90.00      0.00    -10.98  -999.99   -10.98      0.0000      0.00 LINEAR  7.3597E-03     88.97  0.0000E+00     -0.00
  100.00      0.00     -9.12  -999.99    -9.12      0.0000     -0.00 LINEAR  9.1140E-03    122.53  0.0000E+00     -0.00
  110.00      0.00     -6.09  -999.99    -6.09      0.0000     -0.00 LINEAR  1.2920E-02    139.05  0.0000E+00     -0.00
  120.00      0.00     -3.59  -999.99    -3.59      0.0000     -0.00 LINEAR  1.7222E-02    146.05  0.0000E+00     -0.00
  130.00      0.00     -1.71  -999.99    -1.71      0.0000     -0.00 LINEAR  2.1390E-02    149.04  0.0000E+00     -0.00
  140.00      0.00     -0.32  -999.99    -0.32      0.0000     -0.00 LINEAR  2.5120E-02    150.25  0.0000E+00     -0.00
  150.00      0.00      0.69  -999.99     0.69      0.0000     -0.00 LINEAR  2.8217E-02    150.65  0.0000E+00     -0.00
  160.00      0.00      1.38  -999.99     1.38      0.0000     -0.00 LINEAR  3.0534E-02    150.72  0.0000E+00     -0.00
  170.00      0.00      1.78  -999.99     1.78      0.0000     -0.00 LINEAR  3.1968E-02    150.68  0.0000E+00     -0.00
  180.00      0.00      1.91  -999.99     1.91      0.0000     -0.00 LINEAR  3.2454E-02    150.65  0.0000E+00     -0.00
    0.00     10.00      1.77   -13.30     1.90      0.0000    -10.00 LINEAR  3.1938E-02     27.48  5.6315E-03   -152.52
   10.00     10.00      1.64   -13.31     1.78      0.0012    -10.14 LEFT    3.1462E-02     27.45  5.6287E-03   -152.95
   20.00     10.00      1.24   -13.32     1.39      0.0051    -10.59 LEFT    3.0057E-02     27.41  5.6205E-03   -154.21
   30.00     10.00      0.56   -13.34     0.73      0.0127    -11.39 LEFT    2.7783E-02     27.47  5.6079E-03   -156.27
   40.00     10.00     -0.45   -13.36    -0.23      0.0261    -12.65 LEFT    2.4744E-02     27.87  5.5924E-03   -159.08
   50.00     10.00     -1.84   -13.39    -1.55      0.0500    -14.56 LEFT    2.1080E-02     29.08  5.5758E-03   -162.57
   60.00     10.00     -3.72   -13.41    -3.27      0.0956    -17.40 LEFT    1.6982E-02     32.05  5.5601E-03   -166.62
   70.00     10.00     -6.21   -13.43    -5.45      0.1904    -21.44 LEFT    1.2748E-02     39.02  5.5474E-03   -171.13
   80.00     10.00     -9.24   -13.45    -7.84      0.4069    -25.52 LEFT    8.9946E-03     55.48  5.5391E-03   -175.95
   90.00     10.00    -11.11   -13.45    -9.11      0.7635     -0.17 LEFT    7.2519E-03     88.97  5.5365E-03    179.07
  100.00     10.00     -9.25   -13.45    -7.85      0.4082     25.54 LEFT    8.9815E-03    122.54  5.5398E-03    174.09
  110.00     10.00     -6.22   -13.43    -5.46      0.1909     21.46 LEFT    1.2733E-02    139.06  5.5487E-03    169.26
  120.00     10.00     -3.72   -13.41    -3.28      0.0957     17.41 LEFT    1.6971E-02    146.06  5.5621E-03    164.76
  130.00     10.00     -1.84   -13.39    -1.55      0.0501     14.57 LEFT    2.1076E-02    149.04  5.5783E-03    160.70
  140.00     10.00     -0.45   -13.36    -0.23      0.0261     12.66 LEFT    2.4748E-02    150.25  5.5954E-03    157.21
  150.00     10.00      0.56   -13.33     0.74      0.0127     11.39 LEFT    2.7794E-02    150.66  5.6113E-03    154.40
  160.00     10.00      1.25   -13.31     1.40      0.0051     10.59 LEFT    3.0074E-02    150.72  5.6242E-03    152.34
  170.00     10.00      1.65   -13.30     1.78      0.0012     10.14 LEFT    3.1483E-02    150.68  5.6326E-03    151.08
  180.00     10.00      1.78   -13.30     1.91      0.0000     10.00 LINEAR  3.1960E-02    150.65  5.6355E-03    150.65
